Circuit: * D:\Sync\Sync - Projects\PRJ-003 - Mu-Tron Phasor II\Simulation\Draft3.asc

.step vb=0
.OP point found by inspection.
Semiconductor Device Operating Points:
                        --- Bipolar Transistors ---
Name:       q1
Model:     3904
Ib:       0.00e+00
Ic:       0.00e+00
Vbe:      0.00e+00
Vbc:      0.00e+00
Vce:      0.00e+00
BetaDC:   0.00e+00
Gm:       2.29e-13
Rpi:      1.83e+09
Rx:       5.77e+00
Ro:       4.32e+11
Cbe:      1.00e-13
Cbc:      2.98e-12
Cjs:      0.00e+00
BetaAC:   4.19e-04
Cbx:      7.45e-13
Ft:       2.27e+01


.step vb=1
.step vb=2
.step vb=3
.step vb=4
.step vb=5

Date: Fri Oct 09 21:34:44 2020
Total elapsed time: 7.602 seconds.

tnom = 27
temp = 27
method = trap
totiter = 5
traniter = 0
tranpoints = 0
accept = 0
rejected = 0
matrix size = 10
fillins = 0
solver = Normal
Matrix Compiler1: 506 bytes object code size
Matrix Compiler2: 740 bytes object code size
