Circuit: * D:\Sync\Sync - Projects\PRJ-003 - Mu-Tron Phasor II\Simulation\Mu-Tron Phasor II Upd.asc

Warning: Multiple definitions of model "1n5817" Type: Diode
R63: both pins shorted together -- ignoring.
WARNING: Node OUT is floating.

WARNING: Less than two connections to node OUT.  This node is used by R37.
Early termination of direct N-R iteration.
Direct Newton iteration failed to find .op point.  (Use ".option noopiter" to skip.)
Starting Gmin stepping
Gmin = 10
Gmin = 1.07374
vernier = 0.5
vernier = 0.25
vernier = 0.125
vernier = 0.0625
Gmin = 1.08884
vernier = 0.03125
vernier = 0.015625
Gmin = 1.03122
vernier = 0.0078125
vernier = 0.0104167
vernier = 0.00520833
Gmin = 1.01988
vernier = 0.00260417
vernier = 0.00347222
Gmin = 1.01305
vernier = 0.00173611
vernier = 0.00231481
vernier = 0.00115741
Gmin = 1.01085
vernier = 0.00154321
vernier = 0.000771604
Gmin = 1.00871
vernier = 0.00102881
vernier = 0.000514403
Gmin = 1.00715
vernier = 0.00068587
vernier = 0.000514403
Gmin = 1.0059
vernier = 0.00068587
vernier = 0.000514402
Gmin = 0
Gmin stepping failed

Starting source stepping with srcstepmethod=0
Source Step = 3.0303%
Source Step = 14.3939%
Source Step = 21.9697%
vernier = 0.0625
Source Step = 21.6057%
Source Step = 21.6353%
Source Step = 21.6649%
Source Step = 21.6945%
Source Step = 21.7241%
vernier = 0.00146484
Source Step = 21.7581%
Source Step = 21.8025%
Source Step = 21.8469%
Source Step = 21.8913%
Source Step = 21.9357%
vernier = 0.00219727
Source Step = 21.9845%
Source Step = 22.0511%
Source Step = 22.1177%
Source Step = 22.1842%
Source Step = 22.2508%
vernier = 0.0032959
Source Step = 22.3207%
Source Step = 22.4206%
Source Step = 22.5205%
Source Step = 22.6204%
Source Step = 22.7202%
Source Step = 22.8201%
vernier = 0.00494385
Source Step = 22.9699%
Source Step = 23.1197%
Source Step = 23.2696%
Source Step = 23.4194%
Source Step = 23.5692%
vernier = 0.00741577
Source Step = 23.7864%
Source Step = 24.0111%
Source Step = 24.2359%
Source Step = 24.4606%
Source Step = 24.6853%
vernier = 0.0111237
Source Step = 24.9999%
Source Step = 25.337%
Source Step = 25.6741%
Source Step = 26.0111%
Source Step = 26.3482%
vernier = 0.0166855
Source Step = 26.8033%
Source Step = 27.3089%
Source Step = 27.8145%
Source Step = 28.3202%
Source Step = 28.8258%
vernier = 0.0250282
Source Step = 29.4831%
Source Step = 30.2415%
Source Step = 30.9999%
Source Step = 31.7584%
Source Step = 32.5168%
vernier = 0.0375423
Source Step = 33.4648%
Source Step = 34.6025%
Source Step = 35.7401%
Source Step = 36.8778%
Source Step = 38.0154%
vernier = 0.0563135
Source Step = 39.3806%
Source Step = 41.0871%
Source Step = 42.7935%
Source Step = 44.5%
Source Step = 46.2065%
vernier = 0.0844703
Source Step = 48.1689%
Source Step = 50.7286%
Source Step = 53.2883%
Source Step = 55.848%
Source Step = 58.4077%
vernier = 0.126705
Source Step = 61.2234%
Source Step = 65.063%
Source Step = 68.9025%
Source Step = 72.7421%
Source Step = 76.5817%
vernier = 0.190058
Source Step = 80.6132%
Source Step = 86.3725%
Source Step = 92.1319%
Source Step = 97.8912%
Source stepping succeeded in finding the operating point.

Semiconductor Device Operating Points:
                        --- Diodes ---
Name:      d15         d14         d13         d12         d11
Model:   1n4148      1n4148      1n4148      1n4148      1n4148
Id:     -5.31e-10   -5.31e-10   -5.31e-10    2.25e-03    2.25e-03
Vd:     -1.07e-02   -1.07e-02   -1.07e-02    6.22e-01    6.22e-01
Req:     2.28e+07    2.28e+07    2.28e+07    2.01e+01    2.01e+01
CAP:     3.98e-12    3.98e-12    3.98e-12    9.99e-10    9.99e-10

Name:      d10         d9          d8          d7        d:u13:4
Model:   1n4148      1n4148      1n4148      1n4148      u13:di
Id:      4.48e-05    4.48e-05    4.48e-05    4.58e-10   -2.59e-15
Vd:      4.43e-01    4.43e-01    4.43e-01    7.57e-03   -2.59e-06
Req:     1.01e+03    1.01e+03    1.01e+03    1.52e+07    1.00e-09
CAP:     2.48e-11    2.48e-11    2.48e-11    4.01e-12    0.00e+00

Name:    d:u13:1     d:u12:4     d:u12:1     d:u11:4     d:u11:1
Model:    u13:x      u12:di       u12:x      u11:di       u11:x
Id:     -2.58e-18   -4.15e-16    3.04e-18   -4.15e-16    1.74e-21
Vd:     -2.57e-06   -4.15e-07    3.04e-06   -4.15e-07    1.74e-09
Req:     1.00e-12    1.00e-09    1.00e-12    1.00e-09    1.00e-12
CAP:     0.00e+00    0.00e+00    0.00e+00    0.00e+00    0.00e+00

Name:    d:u9:4      d:u9:1      d:u8:4      d:u8:1      d:u7:4
Model:    u9:di       u9:x        u8:di       u8:x        u7:di
Id:     -2.21e-29    6.49e-35    1.53e-28    2.89e-29   -1.66e-33
Vd:     -2.21e-20    6.48e-23    1.53e-19    2.89e-17   -1.66e-24
Req:     1.00e-09    1.00e-12    1.00e-09    1.00e-12    1.00e-09
CAP:     0.00e+00    0.00e+00    0.00e+00    0.00e+00    0.00e+00

Name:    d:u7:1      d:u6:4      d:u6:1      d:u5:4      d:u5:1
Model:    u7:x        u6:di       u6:x        u5:di       u5:x
Id:     -1.63e-32   -1.67e-28   -2.89e-29    4.80e-28    2.89e-29
Vd:     -1.62e-20   -1.67e-19   -2.89e-17    4.80e-19    2.89e-17
Req:     1.00e-12    1.00e-09    1.00e-12    1.00e-09    1.00e-12
CAP:     0.00e+00    0.00e+00    0.00e+00    0.00e+00    0.00e+00

Name:    d:u4:4      d:u4:1      d:u3:4      d:u3:1      d:u2:4
Model:    u4:di       u4:x        u3:di       u3:x        u2:di
Id:      1.31e-28    3.32e-33    1.89e-28    2.89e-29   -2.53e-34
Vd:      1.31e-19    3.32e-21    1.89e-19    2.89e-17   -2.53e-25
Req:     1.00e-09    1.00e-12    1.00e-09    1.00e-12    1.00e-09
CAP:     0.00e+00    0.00e+00    0.00e+00    0.00e+00    0.00e+00

Name:    d:u2:1      d:u1:4      d:u1:1
Model:    u2:x        u1:di       u1:x
Id:     -1.33e-33   -1.89e-28   -2.89e-29
Vd:     -1.33e-21   -1.89e-19   -2.89e-17
Req:     1.00e-12    1.00e-09    1.00e-12
CAP:     0.00e+00    0.00e+00    0.00e+00

                        --- Bipolar Transistors ---
Name:       q3
Model:    2n3904
Ib:       1.35e-07
Ic:       4.46e-05
Vbe:      5.72e-01
Vbc:     -1.01e+01
Vce:      1.06e+01
BetaDC:   3.30e+02
Gm:       1.73e-03
Rpi:      1.91e+05
Rx:       2.00e+01
Ro:       2.47e+06
Cbe:      1.24e-11
Cbc:      1.66e-12
Cjs:      0.00e+00
BetaAC:   3.30e+02
Cbx:      0.00e+00
Ft:       1.95e+07

                        --- VDMOSFET Transistors ---
Name:        m:u13:2     m:u13:1     m:u12:2     m:u12:1     m:u11:2
Model:        u13:p       u13:n       u12:p       u12:n       u11:p
Id:         -2.25e-03    2.25e-03   -2.25e-03    2.25e-03   -2.25e-03
Vgs:         4.51e-06    4.51e-06   -3.04e-06   -3.04e-06   -1.74e-09
Vds:        -1.39e+01    1.01e+01   -1.20e+01    1.14e+01   -1.20e+01
Vth:         3.00e-01   -3.00e-01    3.00e-01   -3.00e-01    3.00e-01
Gm:          1.50e-02    1.50e-02    1.50e-02    1.50e-02    1.50e-02
Gds:         0.00e+00    0.00e+00    0.00e+00    0.00e+00    0.00e+00
Cgs:         0.00e+00    0.00e+00    0.00e+00    0.00e+00    0.00e+00
Cgd:         0.00e+00    0.00e+00    0.00e+00    0.00e+00    0.00e+00
Cbody:       0.00e+00    0.00e+00    0.00e+00    0.00e+00    0.00e+00

Name:        m:u11:1     m:u9:2      m:u9:1      m:u8:2      m:u8:1
Model:        u11:n       u9:p        u9:n        u8:p        u8:n
Id:          2.25e-03   -2.25e-03    2.25e-03   -2.25e-03    2.25e-03
Vgs:        -1.74e-09   -6.48e-23   -6.48e-23   -2.89e-17   -2.89e-17
Vds:         1.14e+01   -1.20e+01    1.20e+01   -1.20e+01    1.20e+01
Vth:        -3.00e-01    3.00e-01   -3.00e-01    3.00e-01   -3.00e-01
Gm:          1.50e-02    1.50e-02    1.50e-02    1.50e-02    1.50e-02
Gds:         0.00e+00    0.00e+00    0.00e+00    0.00e+00    0.00e+00
Cgs:         0.00e+00    0.00e+00    0.00e+00    0.00e+00    0.00e+00
Cgd:         0.00e+00    0.00e+00    0.00e+00    0.00e+00    0.00e+00
Cbody:       0.00e+00    0.00e+00    0.00e+00    0.00e+00    0.00e+00

Name:        m:u7:2      m:u7:1      m:u6:2      m:u6:1      m:u5:2
Model:        u7:p        u7:n        u6:p        u6:n        u5:p
Id:         -2.25e-03    2.25e-03   -2.25e-03    2.25e-03   -2.25e-03
Vgs:         1.62e-20    1.62e-20    2.89e-17    2.89e-17   -2.89e-17
Vds:        -1.20e+01    1.20e+01   -1.20e+01    1.20e+01   -1.20e+01
Vth:         3.00e-01   -3.00e-01    3.00e-01   -3.00e-01    3.00e-01
Gm:          1.50e-02    1.50e-02    1.50e-02    1.50e-02    1.50e-02
Gds:         0.00e+00    0.00e+00    0.00e+00    0.00e+00    0.00e+00
Cgs:         0.00e+00    0.00e+00    0.00e+00    0.00e+00    0.00e+00
Cgd:         0.00e+00    0.00e+00    0.00e+00    0.00e+00    0.00e+00
Cbody:       0.00e+00    0.00e+00    0.00e+00    0.00e+00    0.00e+00

Name:        m:u5:1      m:u4:2      m:u4:1      m:u3:2      m:u3:1
Model:        u5:n        u4:p        u4:n        u3:p        u3:n
Id:          2.25e-03   -2.25e-03    2.25e-03   -2.25e-03    2.25e-03
Vgs:        -2.89e-17   -3.32e-21   -3.32e-21   -2.89e-17   -2.89e-17
Vds:         1.20e+01   -1.20e+01    1.20e+01   -1.20e+01    1.20e+01
Vth:        -3.00e-01    3.00e-01   -3.00e-01    3.00e-01   -3.00e-01
Gm:          1.50e-02    1.50e-02    1.50e-02    1.50e-02    1.50e-02
Gds:         0.00e+00    0.00e+00    0.00e+00    0.00e+00    0.00e+00
Cgs:         0.00e+00    0.00e+00    0.00e+00    0.00e+00    0.00e+00
Cgd:         0.00e+00    0.00e+00    0.00e+00    0.00e+00    0.00e+00
Cbody:       0.00e+00    0.00e+00    0.00e+00    0.00e+00    0.00e+00

Name:        m:u2:2      m:u2:1      m:u1:2      m:u1:1
Model:        u2:p        u2:n        u1:p        u1:n
Id:         -2.25e-03    2.25e-03   -2.25e-03    2.25e-03
Vgs:         1.33e-21    1.33e-21    2.89e-17    2.89e-17
Vds:        -1.20e+01    1.20e+01   -1.20e+01    1.20e+01
Vth:         3.00e-01   -3.00e-01    3.00e-01   -3.00e-01
Gm:          1.50e-02    1.50e-02    1.50e-02    1.50e-02
Gds:         0.00e+00    0.00e+00    0.00e+00    0.00e+00
Cgs:         0.00e+00    0.00e+00    0.00e+00    0.00e+00
Cgd:         0.00e+00    0.00e+00    0.00e+00    0.00e+00
Cbody:       0.00e+00    0.00e+00    0.00e+00    0.00e+00



Date: Sat Oct 10 03:44:45 2020
Total elapsed time: 20.071 seconds.

tnom = 27
temp = 27
method = trap
totiter = 9396
traniter = 0
tranpoints = 0
accept = 0
rejected = 0
matrix size = 111
fillins = 349
solver = Normal
Thread vector: 44.1/22.1[4] 0.0/0.0[0] 10.2/7.5[4] 0.9/3.7[1]  2592/500
Matrix Compiler1: 28.63 KB object code size
Matrix Compiler2: 19.18 KB object code size  2.8/2.5/[1.1]

